RF24Network Basenode and 433MHz gateway
PLATFORM: Basebord V1 - EFM 2013
VERSION: 3.1
STATUS    = 0x0e RX_DR=0 TX_DS=0 MAX_RT=0 RX_P_NO=7 TX_FULL=0
RX_ADDR_P0-1  = 0xf0f0f0f03c 0xf0f0f0f05a
RX_ADDR_P2-5  = 0x69 0x96 0xa5 0xc3
TX_ADDR    = 0xe7e7e7e7e7
RX_PW_P0-6   = 0x20 0x20 0x20 0x20 0x20 0x20
EN_AA    = 0x3f
EN_RXADDR   = 0x3f
RF_CH    = 0x09
RF_SETUP   = 0x07
CONFIG    = 0x0f
DYNPD/FEATURE = 0x00 0x00
Data Rate   = 1MBPS
Model    = nRF24L01+
CRC Length   = 16 bits
PA Power   = PA_HIGH
 24755: RF24 02 3 S 24 251 0 108 0 0 0 0 0 0 0 0 0 0 0 0 0 0 0 0 0 0 0 0 0
 31893: R434 4241386 0 0 0
 33323: R434 4241386 0 0 1
 34608: R434 4241386 0 0 2
 54126: S434 4241386 0 1 1 0
 58181: RF24 02 4 S 24 251 0 110 0 0 0 0 0 0 0 0 0 0 0 0 0 0 0 0 0 0 0 0 0 
 66992: S434 4241386 0 0 1 0
 91604: RF24 02 5 S 24 251 0 107 0 0 0 0 0 0 0 0 0 0 0 0 0 0 0 0 0 0 0 0 0 
124527: RF24 02 6 S 24 251 0 108 0 0 0 0 0 0 0 0 0 0 0 0 0 0 0 0 0 0 0 0 0 
158445: RF24 02 7 S 24 251 0 110 0 0 0 0 0 0 0 0 0 0 0 0 0 0 0 0 0 0 0 0 0 
191863: RF24 02 8 S 24 0 1 33 0 0 0 0 0 0 0 0 0 0 0 0 0 0 0 0 0 0 0 0 0 
225284: RF24 02 9 S 24 254 0 111 0 0 0 0 0 0 0 0 0 0 0 0 0 0 0 0 0 0 0 0 0 
225579: R434 4241386 0 0 0
226089: R434 4241386 0 0 1
226609: R434 4241386 0 0 2
227081: R434 4241386 0 0 3
229906: R434 4241386 0 0 4
230405: R434 4241386 0 0 5
230857: R434 4241386 0 0 6
231297: R434 4241386 0 0 7
231815: R434 4241386 1 0 0
237864: R434 4241386 0 0 12
238281: R434 4241386 0 0 13
238704: R434 4241386 0 0 14
239186: R434 4241386 0 0 15
241552: R434 4241386 0 0 12
242079: R434 4241386 0 0 13
242709: R434 4241386 0 0 14
243209: R434 4241386 0 0 15
245648: R434 4241386 0 0 8
246310: R434 4241386 0 0 9
246755: R434 4241386 0 0 10
247199: R434 4241386 0 0 11
258701: RF24 02 10 S 24 253 0 149 0 0 0 0 0 0 0 0 0 0 0 0 0 0 0 0 0 0 0 0 0 
292118: RF24 02 11 S 24 252 0 81 0 0 0 0 0 0 0 0 0 0 0 0 0 0 0 0 0 0 0 0 0 
325535: RF24 02 12 S 24 252 0 81 0 0 0 0 0 0 0 0 0 0 0 0 0 0 0 0 0 0 0 0 0 
358950: RF24 02 13 S 24 252 0 79 0 0 0 0 0 0 0 0 0 0 0 0 0 0 0 0 0 0 0 0 0 
392366: RF24 02 14 S 24 251 0 81 0 0 0 0 0 0 0 0 0 0 0 0 0 0 0 0 0 0 0 0 0 
425780: RF24 02 15 S 24 251 0 80 0 0 0 0 0 0 0 0 0 0 0 0 0 0 0 0 0 0 0 0 0 
459192: RF24 02 16 S 24 252 0 82 0 0 0 0 0 0 0 0 0 0 0 0 0 0 0 0 0 0 0 0 0 
492604: RF24 02 17 S 24 252 0 95 0 0 0 0 0 0 0 0 0 0 0 0 0 0 0 0 0 0 0 0 0 
526017: RF24 02 18 S 24 252 0 92 0 0 0 0 0 0 0 0 0 0 0 0 0 0 0 0 0 0 0 0 0 
559430: RF24 02 19 S 24 251 0 92 0 0 0 0 0 0 0 0 0 0 0 0 0 0 0 0 0 0 0 0 0 
592840: RF24 02 20 S 24 250 0 95 0 0 0 0 0 0 0 0 0 0 0 0 0 0 0 0 0 0 0 0 0 
626252: RF24 02 21 S 24 251 0 94 0 0 0 0 0 0 0 0 0 0 0 0 0 0 0 0 0 0 0 0 0 
